Vgs,Igs,Vds,Ids
0.0,0.001,5.001,0.0
0.005,0.001,5.001,0.0
0.01,0.001,5.001,0.0
0.015,0.001,5.001,0.0
0.02,0.001,5.001,0.0
0.025,0.001,5.001,0.0
0.029,0.001,5.001,0.0
0.034,0.001,5.001,0.0
0.039,0.001,5.001,0.0
0.045,0.001,5.001,0.0
0.05,0.001,5.001,0.0
0.055,0.001,5.001,0.0
0.06,0.001,5.001,0.0
0.065,0.001,5.001,0.0
0.07,0.001,5.001,0.0
0.075,0.001,5.001,0.0
0.08,0.001,5.001,0.0
0.085,0.001,5.001,0.0
0.09,0.001,5.001,0.0
0.095,0.001,5.001,0.0
0.1,0.001,5.001,0.0
0.104,0.001,5.001,0.0
0.109,0.001,5.001,0.0
0.114,0.001,5.001,0.0
0.119,0.001,5.001,0.0
0.124,0.001,5.001,0.0
0.129,0.001,5.001,0.0
0.134,0.001,5.001,0.0
0.139,0.001,5.001,0.0
0.144,0.001,5.001,0.0
0.149,0.001,5.001,0.0
0.154,0.001,5.001,0.0
0.16,0.001,5.001,0.0
0.165,0.001,5.001,0.0
0.17,0.001,5.001,0.0
0.175,0.001,5.001,0.0
0.18,0.001,5.001,0.0
0.185,0.001,5.001,0.0
0.19,0.001,5.001,0.0
0.195,0.001,5.001,0.0
0.2,0.001,5.001,0.0
0.205,0.001,5.001,0.0
0.21,0.001,5.001,0.0
0.215,0.001,5.001,0.0
0.22,0.001,5.001,0.0
0.225,0.001,5.001,0.0
0.23,0.001,5.001,0.0
0.235,0.001,5.001,0.0
0.24,0.001,5.001,0.0
0.245,0.001,5.001,0.0
0.25,0.001,5.001,0.0
0.254,0.001,5.001,0.0
0.259,0.001,5.001,0.0
0.264,0.001,5.001,0.0
0.269,0.001,5.001,0.0
0.275,0.001,5.001,0.0
0.28,0.001,5.001,0.0
0.285,0.001,5.001,0.0
0.29,0.001,5.001,0.0
0.295,0.001,5.001,0.0
0.3,0.001,5.001,0.0
0.305,0.001,5.001,0.0
0.31,0.001,5.0,0.0
0.315,0.001,5.001,0.0
0.32,0.001,5.001,0.0
0.324,0.001,5.001,0.0
0.329,0.001,5.001,0.0
0.335,0.001,5.001,0.0
0.34,0.001,5.001,0.0
0.345,0.001,5.001,0.0
0.35,0.001,5.001,0.0
0.355,0.001,5.0,0.0
0.36,0.001,5.001,0.0
0.365,0.001,5.001,0.0
0.37,0.001,5.0,0.0
0.375,0.001,5.0,0.0
0.38,0.001,5.001,0.0
0.385,0.001,5.0,0.0
0.39,0.001,5.0,0.0
0.395,0.001,5.0,0.0
0.4,0.001,5.0,0.0
0.405,0.001,5.0,0.0
0.41,0.001,5.0,0.0
0.415,0.001,5.0,0.0
0.42,0.001,5.0,0.0
0.425,0.001,5.0,0.0
0.43,0.001,5.0,0.0
0.435,0.001,5.0,0.0
0.44,0.001,5.0,0.0
0.445,0.001,5.0,0.0
0.45,0.001,5.0,0.0
0.455,0.001,5.0,0.0
0.46,0.001,5.0,0.0
0.465,0.001,5.0,0.0
0.47,0.001,5.0,0.0
0.474,0.001,5.0,0.0
0.479,0.001,5.0,0.0
0.484,0.001,5.0,0.0
0.489,0.001,5.0,0.0
0.495,0.001,5.0,0.0
0.499,0.001,5.0,0.0
0.505,0.001,5.0,0.0
0.51,0.001,5.0,0.0
0.515,0.001,5.0,0.0
0.52,0.001,5.0,0.0
0.525,0.001,5.0,0.0
0.53,0.001,5.0,0.0
0.535,0.001,5.0,0.0
0.54,0.001,5.0,0.0
0.545,0.001,5.0,0.0
0.55,0.001,5.0,0.0
0.555,0.001,5.0,0.0
0.56,0.001,5.0,0.0
0.565,0.001,5.0,0.0
0.57,0.001,5.0,0.0
0.575,0.001,5.0,0.0
0.58,0.001,5.0,0.0
0.585,0.001,5.0,0.0
0.59,0.001,5.0,0.0
0.595,0.001,5.0,0.0
0.6,0.001,5.0,0.0
0.605,0.001,5.0,0.0
0.61,0.001,5.0,0.0
0.615,0.001,5.0,0.0
0.621,0.001,5.0,0.0
0.625,0.001,5.0,0.0
0.63,0.001,5.0,0.0
0.635,0.001,5.0,0.0
0.64,0.001,5.0,0.0
0.645,0.001,5.0,0.0
0.65,0.001,5.0,0.0
0.655,0.001,5.0,0.0
0.661,0.001,5.0,0.0
0.666,0.001,5.0,0.0
0.671,0.001,5.0,0.0
0.676,0.001,5.0,0.0
0.681,0.001,5.0,0.0
0.686,0.001,5.0,0.0
0.691,0.001,5.0,0.0
0.695,0.001,5.0,0.0
0.7,0.001,5.0,0.0
0.705,0.001,5.0,0.0
0.71,0.001,5.0,0.0
0.715,0.001,5.0,0.0
0.72,0.001,5.0,0.0
0.725,0.001,5.0,0.0
0.73,0.001,5.0,0.0
0.735,0.001,5.0,0.0
0.74,0.001,5.0,0.0
0.745,0.001,5.0,0.0
0.75,0.001,5.0,0.0
0.755,0.001,5.0,0.0
0.76,0.001,5.0,0.0
0.765,0.001,5.0,0.0
0.77,0.001,5.0,0.0
0.775,0.001,5.0,0.0
0.78,0.001,5.0,0.0
0.785,0.001,5.0,0.0
0.79,0.001,5.0,0.0
0.795,0.001,5.0,0.0
0.8,0.001,5.0,0.0
0.805,0.001,5.0,0.0
0.81,0.001,5.0,0.0
0.815,0.001,5.0,0.0
0.82,0.001,5.0,0.0
0.825,0.001,5.0,0.0
0.83,0.001,5.0,0.0
0.835,0.001,5.0,0.0
0.84,0.001,5.0,0.0
0.844,0.001,5.0,0.0
0.849,0.001,5.0,0.0
0.854,0.001,5.0,0.0
0.859,0.001,5.0,0.0
0.864,0.001,5.0,0.0
0.87,0.001,5.0,0.0
0.875,0.001,5.0,0.0
0.88,0.001,5.0,0.0
0.885,0.001,5.0,0.0
0.89,0.001,5.0,0.0
0.895,0.001,5.0,0.0
0.9,0.001,5.0,0.0
0.905,0.001,5.0,0.0
0.91,0.001,5.0,0.0
0.915,0.001,5.0,0.0
0.92,0.001,5.0,0.0
0.925,0.001,5.0,0.0
0.93,0.001,5.0,0.0
0.935,0.001,5.0,0.0
0.94,0.001,5.0,0.0
0.945,0.001,5.0,0.0
0.95,0.001,5.0,0.0
0.955,0.001,5.0,0.0
0.96,0.001,5.0,0.0
0.965,0.001,5.0,0.0
0.97,0.001,5.0,0.0
0.976,0.001,5.0,0.0
0.981,0.001,5.0,0.0
0.986,0.001,5.0,0.0
0.991,0.001,5.0,0.0
0.995,0.001,5.0,0.0
1.0,0.001,5.0,0.0
1.005,0.001,5.0,0.0
1.01,0.001,5.0,0.0
1.015,0.001,5.0,0.0
1.02,0.001,5.0,0.0
1.025,0.001,5.0,0.0
1.03,0.001,5.0,0.0
1.035,0.001,5.0,0.0
1.04,0.001,5.0,0.0
1.045,0.001,5.0,0.0
1.05,0.001,5.0,0.0
1.055,0.001,5.0,0.0
1.06,0.001,5.0,0.0
1.065,0.001,5.0,0.0
1.07,0.001,5.0,0.0
1.075,0.001,5.0,0.0
1.08,0.001,5.0,0.0
1.085,0.001,5.0,0.0
1.09,0.001,5.0,0.0
1.095,0.001,5.0,0.0
1.1,0.001,5.0,0.0
1.105,0.001,5.0,0.0
1.11,0.001,5.0,0.0
1.115,0.001,5.0,0.0
1.12,0.001,5.0,0.0
1.125,0.001,5.0,0.0
1.13,0.001,5.0,0.0
1.135,0.001,5.0,0.0
1.14,0.001,5.0,0.0
1.145,0.001,5.0,0.0
1.15,0.001,5.0,0.0
1.155,0.001,5.0,0.0
1.16,0.001,5.0,0.0
1.165,0.001,5.0,0.0
1.17,0.001,5.0,0.0
1.175,0.001,5.0,0.0
1.18,0.001,5.0,0.0
1.185,0.001,5.0,0.0
1.19,0.001,5.0,0.0
1.195,0.001,5.0,0.0
1.2,0.001,5.0,0.0
1.205,0.001,5.0,0.0
1.21,0.001,5.0,0.0
1.214,0.001,5.0,0.0
1.22,0.001,5.0,0.0
1.225,0.001,5.0,0.0
1.23,0.001,5.0,0.0
1.235,0.001,5.0,0.0
1.24,0.001,5.0,0.0
1.245,0.001,5.0,0.0
1.25,0.001,5.0,0.0
1.255,0.001,5.0,0.001
1.26,0.001,5.0,0.0
1.265,0.001,5.0,0.001
1.27,0.001,5.0,0.0
1.275,0.001,5.0,0.0
1.28,0.001,5.0,0.0
1.285,0.001,5.0,0.001
1.29,0.001,5.0,0.0
1.295,0.001,5.0,0.0
1.3,0.001,5.0,0.0
1.305,0.001,5.0,0.0
1.31,0.001,5.0,0.0
1.315,0.001,5.0,0.0
1.32,0.001,5.0,0.0
1.325,0.001,5.0,0.001
1.33,0.001,5.0,0.001
1.336,0.001,5.0,0.0
1.341,0.001,5.0,0.001
1.345,0.001,5.0,0.001
1.35,0.001,5.0,0.001
1.355,0.001,5.0,0.001
1.361,0.001,5.0,0.001
1.365,0.001,5.0,0.001
1.37,0.001,5.0,0.001
1.374,0.001,5.0,0.001
1.379,0.001,5.0,0.001
1.385,0.001,5.0,0.001
1.39,0.001,5.0,0.001
1.395,0.001,5.0,0.001
1.4,0.001,5.0,0.001
1.405,0.001,5.0,0.001
1.41,0.001,5.0,0.001
1.415,0.001,5.0,0.001
1.42,0.001,5.0,0.001
1.425,0.001,5.0,0.001
1.43,0.001,5.0,0.001
1.435,0.001,5.0,0.001
1.44,0.001,5.0,0.001
1.445,0.001,5.0,0.001
1.45,0.001,5.0,0.001
1.455,0.001,5.0,0.001
1.46,0.001,5.0,0.001
1.465,0.001,5.0,0.001
1.47,0.001,5.0,0.001
1.475,0.001,5.0,0.001
1.48,0.001,5.0,0.001
1.485,0.001,5.0,0.001
1.49,0.001,5.0,0.001
1.495,0.001,5.0,0.001
1.5,0.001,5.0,0.001
1.505,0.001,5.0,0.001
1.509,0.001,5.0,0.001
1.514,0.001,5.0,0.001
1.519,0.001,5.0,0.001
1.524,0.001,5.0,0.001
1.53,0.001,5.0,0.001
1.535,0.001,5.0,0.001
1.54,0.001,5.0,0.001
1.545,0.001,5.0,0.001
1.55,0.001,5.0,0.001
1.555,0.001,5.0,0.001
1.56,0.001,5.0,0.001
1.565,0.001,5.0,0.002
1.57,0.001,5.0,0.002
1.575,0.001,5.0,0.002
1.58,0.001,5.0,0.002
1.585,0.001,5.0,0.002
1.59,0.001,5.0,0.002
1.595,0.001,5.0,0.002
1.6,0.001,5.0,0.002
1.605,0.001,5.0,0.002
1.61,0.001,5.0,0.002
1.615,0.001,5.0,0.003
1.62,0.001,5.0,0.003
1.625,0.001,5.0,0.003
1.63,0.001,5.0,0.003
1.635,0.001,5.0,0.003
1.64,0.001,5.0,0.003
1.645,0.001,5.0,0.004
1.65,0.001,5.0,0.004
1.655,0.001,5.0,0.004
1.66,0.001,5.0,0.004
1.665,0.001,5.0,0.004
1.67,0.001,5.0,0.005
1.675,0.001,5.0,0.005
1.68,0.001,5.0,0.005
1.685,0.001,5.0,0.006
1.69,0.001,5.0,0.006
1.695,0.001,5.0,0.007
1.7,0.001,5.0,0.007
1.705,0.001,5.0,0.007
1.71,0.001,5.0,0.008
1.715,0.001,5.0,0.008
1.72,0.001,5.0,0.009
1.725,0.001,5.0,0.009
1.73,0.001,5.0,0.01
1.734,0.001,5.0,0.01
1.739,0.001,5.0,0.011
1.744,0.001,5.0,0.012
1.749,0.001,5.0,0.013
1.755,0.001,5.0,0.013
1.76,0.001,5.0,0.014
1.765,0.001,5.0,0.015
1.77,0.001,5.0,0.016
1.775,0.001,5.0,0.017
1.78,0.001,5.0,0.018
1.785,0.001,5.0,0.019
1.79,0.001,5.0,0.021
1.795,0.001,5.0,0.022
1.8,0.001,5.0,0.023
1.805,0.001,5.0,0.025
1.81,0.001,5.0,0.026
1.815,0.001,5.0,0.028
1.82,0.001,5.0,0.03
1.825,0.001,5.0,0.032
1.83,0.001,5.0,0.034
1.835,0.001,5.0,0.036
1.84,0.001,5.0,0.038
1.845,0.001,5.0,0.041
1.85,0.001,5.0,0.043
1.855,0.001,5.0,0.046
1.86,0.001,5.0,0.049
1.865,0.001,5.0,0.052
1.87,0.001,5.0,0.055
1.875,0.001,5.0,0.059
1.879,0.001,5.0,0.062
1.885,0.001,5.0,0.067
1.89,0.001,5.0,0.071
1.895,0.001,5.0,0.076
1.9,0.001,5.0,0.081
1.905,0.001,5.0,0.086
1.91,0.001,5.0,0.092
1.915,0.001,5.0,0.098
1.92,0.001,5.0,0.105
1.925,0.001,5.0,0.112
1.93,0.001,5.0,0.12
1.935,0.001,5.0,0.128
1.94,0.001,5.0,0.136
1.945,0.001,5.0,0.146
1.95,0.001,5.0,0.156
1.955,0.001,5.0,0.168
1.96,0.001,5.0,0.179
1.965,0.001,5.0,0.193
1.97,0.001,5.0,0.209
1.975,0.001,5.0,0.223
1.98,0.001,5.0,0.242
1.985,0.001,5.0,0.26
1.99,0.001,5.0,0.283
1.995,0.001,5.0,0.303
2.0,0.001,5.0,0.331
2.005,0.001,5.0,0.361
2.01,0.001,5.0,0.389
2.015,0.001,5.0,0.427
2.02,0.001,5.0,0.462
2.025,0.001,5.0,0.511
2.029,0.001,5.0,0.552
2.034,0.001,5.0,0.614
2.04,0.001,5.0,0.668
2.045,0.001,5.0,0.751
2.05,0.001,5.0,0.849
2.055,0.001,5.0,0.936
2.06,0.001,5.0,1.076
2.065,0.001,5.0,1.198
2.07,0.001,5.0,1.395
2.075,0.001,5.0,1.564
2.08,0.001,5.0,1.857
2.085,0.001,5.0,2.234
2.09,0.001,5.0,2.571
2.095,0.001,5.0,3.2
2.1,0.001,3.096,3.2
2.105,0,0,3.2
2.11,0,0,3.2
2.115,0,0,3.2
2.12,0,0,3.2
2.125,0,0,3.2
2.13,0,0,3.2
2.1350000000000002,0,0,3.2
2.14,0,0,3.2
2.145,0,0,3.2
2.15,0,0,3.2
2.1550000000000002,0,0,3.2
2.16,0,0,3.2
2.165,0,0,3.2
2.17,0,0,3.2
2.1750000000000003,0,0,3.2
2.18,0,0,3.2
2.185,0,0,3.2
2.19,0,0,3.2
2.195,0,0,3.2
2.2,0,0,3.2
2.205,0,0,3.2
2.21,0,0,3.2
2.215,0,0,3.2
2.22,0,0,3.2
2.225,0,0,3.2
2.23,0,0,3.2
2.235,0,0,3.2
2.24,0,0,3.2
2.245,0,0,3.2
2.25,0,0,3.2
2.255,0,0,3.2
2.2600000000000002,0,0,3.2
2.265,0,0,3.2
2.27,0,0,3.2
2.275,0,0,3.2
2.2800000000000002,0,0,3.2
2.285,0,0,3.2
2.29,0,0,3.2
2.295,0,0,3.2
2.3000000000000003,0,0,3.2
2.305,0,0,3.2
2.31,0,0,3.2
2.315,0,0,3.2
2.32,0,0,3.2
2.325,0,0,3.2
2.33,0,0,3.2
2.335,0,0,3.2
2.34,0,0,3.2
2.345,0,0,3.2
2.35,0,0,3.2
2.355,0,0,3.2
2.36,0,0,3.2
2.365,0,0,3.2
2.37,0,0,3.2
2.375,0,0,3.2
2.38,0,0,3.2
2.3850000000000002,0,0,3.2
2.39,0,0,3.2
2.395,0,0,3.2
2.4,0,0,3.2
2.4050000000000002,0,0,3.2
2.41,0,0,3.2
2.415,0,0,3.2
2.42,0,0,3.2
2.4250000000000003,0,0,3.2
2.43,0,0,3.2
2.435,0,0,3.2
2.44,0,0,3.2
2.445,0,0,3.2
2.45,0,0,3.2
2.455,0,0,3.2
2.46,0,0,3.2
2.465,0,0,3.2
2.47,0,0,3.2
2.475,0,0,3.2
2.48,0,0,3.2
2.485,0,0,3.2
2.49,0,0,3.2
2.495,0,0,3.2
2.5,0,0,3.2
2.505,0,0,3.2
2.5100000000000002,0,0,3.2
2.515,0,0,3.2
2.52,0,0,3.2
2.525,0,0,3.2
2.5300000000000002,0,0,3.2
2.535,0,0,3.2
2.54,0,0,3.2
2.545,0,0,3.2
2.5500000000000003,0,0,3.2
2.555,0,0,3.2
2.56,0,0,3.2
2.565,0,0,3.2
2.57,0,0,3.2
2.575,0,0,3.2
2.58,0,0,3.2
2.585,0,0,3.2
2.59,0,0,3.2
2.595,0,0,3.2
2.6,0,0,3.2
2.605,0,0,3.2
2.61,0,0,3.2
2.615,0,0,3.2
2.62,0,0,3.2
2.625,0,0,3.2
2.63,0,0,3.2
2.6350000000000002,0,0,3.2
2.64,0,0,3.2
2.645,0,0,3.2
2.65,0,0,3.2
2.6550000000000002,0,0,3.2
2.66,0,0,3.2
2.665,0,0,3.2
2.67,0,0,3.2
2.6750000000000003,0,0,3.2
2.68,0,0,3.2
2.685,0,0,3.2
2.69,0,0,3.2
2.695,0,0,3.2
2.7,0,0,3.2
2.705,0,0,3.2
2.71,0,0,3.2
2.715,0,0,3.2
2.72,0,0,3.2
2.725,0,0,3.2
2.73,0,0,3.2
2.735,0,0,3.2
2.74,0,0,3.2
2.745,0,0,3.2
2.75,0,0,3.2
2.755,0,0,3.2
2.7600000000000002,0,0,3.2
2.765,0,0,3.2
2.77,0,0,3.2
2.775,0,0,3.2
2.7800000000000002,0,0,3.2
2.785,0,0,3.2
2.79,0,0,3.2
2.795,0,0,3.2
2.8000000000000003,0,0,3.2
2.805,0,0,3.2
2.81,0,0,3.2
2.815,0,0,3.2
2.82,0,0,3.2
2.825,0,0,3.2
2.83,0,0,3.2
2.835,0,0,3.2
2.84,0,0,3.2
2.845,0,0,3.2
2.85,0,0,3.2
2.855,0,0,3.2
2.86,0,0,3.2
2.865,0,0,3.2
2.87,0,0,3.2
2.875,0,0,3.2
2.88,0,0,3.2
2.8850000000000002,0,0,3.2
2.89,0,0,3.2
2.895,0,0,3.2
2.9,0,0,3.2
2.9050000000000002,0,0,3.2
2.91,0,0,3.2
2.915,0,0,3.2
2.92,0,0,3.2
2.9250000000000003,0,0,3.2
2.93,0,0,3.2
2.935,0,0,3.2
2.94,0,0,3.2
2.945,0,0,3.2
2.95,0,0,3.2
2.955,0,0,3.2
2.96,0,0,3.2
2.965,0,0,3.2
2.97,0,0,3.2
2.975,0,0,3.2
2.98,0,0,3.2
2.985,0,0,3.2
2.99,0,0,3.2
2.995,0,0,3.2
3.0,0,0,3.2
3.005,0,0,3.2
3.0100000000000002,0,0,3.2
3.015,0,0,3.2
3.02,0,0,3.2
3.025,0,0,3.2
3.0300000000000002,0,0,3.2
3.035,0,0,3.2
3.04,0,0,3.2
3.045,0,0,3.2
3.0500000000000003,0,0,3.2
3.055,0,0,3.2
3.06,0,0,3.2
3.065,0,0,3.2
3.0700000000000003,0,0,3.2
3.075,0,0,3.2
3.08,0,0,3.2
3.085,0,0,3.2
3.09,0,0,3.2
3.095,0,0,3.2
3.1,0,0,3.2
3.105,0,0,3.2
3.11,0,0,3.2
3.115,0,0,3.2
3.12,0,0,3.2
3.125,0,0,3.2
3.13,0,0,3.2
3.1350000000000002,0,0,3.2
3.14,0,0,3.2
3.145,0,0,3.2
3.15,0,0,3.2
3.1550000000000002,0,0,3.2
3.16,0,0,3.2
3.165,0,0,3.2
3.17,0,0,3.2
3.1750000000000003,0,0,3.2
3.18,0,0,3.2
3.185,0,0,3.2
3.19,0,0,3.2
3.1950000000000003,0,0,3.2
3.2,0,0,3.2
3.205,0,0,3.2
3.21,0,0,3.2
3.215,0,0,3.2
3.22,0,0,3.2
3.225,0,0,3.2
3.23,0,0,3.2
3.235,0,0,3.2
3.24,0,0,3.2
3.245,0,0,3.2
3.25,0,0,3.2
3.255,0,0,3.2
3.2600000000000002,0,0,3.2
3.265,0,0,3.2
3.27,0,0,3.2
3.275,0,0,3.2
3.2800000000000002,0,0,3.2
3.285,0,0,3.2
3.29,0,0,3.2
3.295,0,0,3.2
3.3000000000000003,0,0,3.2
3.305,0,0,3.2
3.31,0,0,3.2
3.315,0,0,3.2
3.3200000000000003,0,0,3.2
3.325,0,0,3.2
3.33,0,0,3.2
3.335,0,0,3.2
3.34,0,0,3.2
3.345,0,0,3.2
3.35,0,0,3.2
3.355,0,0,3.2
3.36,0,0,3.2
3.365,0,0,3.2
3.37,0,0,3.2
3.375,0,0,3.2
3.38,0,0,3.2
3.3850000000000002,0,0,3.2
3.39,0,0,3.2
3.395,0,0,3.2
3.4,0,0,3.2
3.4050000000000002,0,0,3.2
3.41,0,0,3.2
3.415,0,0,3.2
3.42,0,0,3.2
3.4250000000000003,0,0,3.2
3.43,0,0,3.2
3.435,0,0,3.2
3.44,0,0,3.2
3.4450000000000003,0,0,3.2
3.45,0,0,3.2
3.455,0,0,3.2
3.46,0,0,3.2
3.465,0,0,3.2
3.47,0,0,3.2
3.475,0,0,3.2
3.48,0,0,3.2
3.485,0,0,3.2
3.49,0,0,3.2
3.495,0,0,3.2
3.5,0,0,3.2
3.505,0,0,3.2
3.5100000000000002,0,0,3.2
3.515,0,0,3.2
3.52,0,0,3.2
3.525,0,0,3.2
3.5300000000000002,0,0,3.2
3.535,0,0,3.2
3.54,0,0,3.2
3.545,0,0,3.2
3.5500000000000003,0,0,3.2
3.555,0,0,3.2
3.56,0,0,3.2
3.565,0,0,3.2
3.5700000000000003,0,0,3.2
3.575,0,0,3.2
3.58,0,0,3.2
3.585,0,0,3.2
3.59,0,0,3.2
3.595,0,0,3.2
3.6,0,0,3.2
3.605,0,0,3.2
3.61,0,0,3.2
3.615,0,0,3.2
3.62,0,0,3.2
3.625,0,0,3.2
3.63,0,0,3.2
3.6350000000000002,0,0,3.2
3.64,0,0,3.2
3.645,0,0,3.2
3.65,0,0,3.2
3.6550000000000002,0,0,3.2
3.66,0,0,3.2
3.665,0,0,3.2
3.67,0,0,3.2
3.6750000000000003,0,0,3.2
3.68,0,0,3.2
3.685,0,0,3.2
3.69,0,0,3.2
3.6950000000000003,0,0,3.2
3.7,0,0,3.2
3.705,0,0,3.2
3.71,0,0,3.2
3.715,0,0,3.2
3.72,0,0,3.2
3.725,0,0,3.2
3.73,0,0,3.2
3.735,0,0,3.2
3.74,0,0,3.2
3.745,0,0,3.2
3.75,0,0,3.2
3.755,0,0,3.2
3.7600000000000002,0,0,3.2
3.765,0,0,3.2
3.77,0,0,3.2
3.775,0,0,3.2
3.7800000000000002,0,0,3.2
3.785,0,0,3.2
3.79,0,0,3.2
3.795,0,0,3.2
3.8000000000000003,0,0,3.2
3.805,0,0,3.2
3.81,0,0,3.2
3.815,0,0,3.2
3.8200000000000003,0,0,3.2
3.825,0,0,3.2
3.83,0,0,3.2
3.835,0,0,3.2
3.84,0,0,3.2
3.845,0,0,3.2
3.85,0,0,3.2
3.855,0,0,3.2
3.86,0,0,3.2
3.865,0,0,3.2
3.87,0,0,3.2
3.875,0,0,3.2
3.88,0,0,3.2
3.8850000000000002,0,0,3.2
3.89,0,0,3.2
3.895,0,0,3.2
3.9,0,0,3.2
3.9050000000000002,0,0,3.2
3.91,0,0,3.2
3.915,0,0,3.2
3.92,0,0,3.2
3.9250000000000003,0,0,3.2
3.93,0,0,3.2
3.935,0,0,3.2
3.94,0,0,3.2
3.9450000000000003,0,0,3.2
3.95,0,0,3.2
3.955,0,0,3.2
3.96,0,0,3.2
3.9650000000000003,0,0,3.2
3.97,0,0,3.2
3.975,0,0,3.2
3.98,0,0,3.2
3.985,0,0,3.2
3.99,0,0,3.2
3.995,0,0,3.2
4.0,0,0,3.2
4.005,0,0,3.2
4.01,0,0,3.2
4.015,0,0,3.2
4.0200000000000005,0,0,3.2
4.025,0,0,3.2
4.03,0,0,3.2
4.035,0,0,3.2
4.04,0,0,3.2
4.045,0,0,3.2
4.05,0,0,3.2
4.055,0,0,3.2
4.0600000000000005,0,0,3.2
4.065,0,0,3.2
4.07,0,0,3.2
4.075,0,0,3.2
4.08,0,0,3.2
4.085,0,0,3.2
4.09,0,0,3.2
4.095,0,0,3.2
4.1,0,0,3.2
4.105,0,0,3.2
4.11,0,0,3.2
4.115,0,0,3.2
4.12,0,0,3.2
4.125,0,0,3.2
4.13,0,0,3.2
4.135,0,0,3.2
4.14,0,0,3.2
4.1450000000000005,0,0,3.2
4.15,0,0,3.2
4.155,0,0,3.2
4.16,0,0,3.2
4.165,0,0,3.2
4.17,0,0,3.2
4.175,0,0,3.2
4.18,0,0,3.2
4.1850000000000005,0,0,3.2
4.19,0,0,3.2
4.195,0,0,3.2
4.2,0,0,3.2
4.205,0,0,3.2
4.21,0,0,3.2
4.215,0,0,3.2
4.22,0,0,3.2
4.225,0,0,3.2
4.23,0,0,3.2
4.235,0,0,3.2
4.24,0,0,3.2
4.245,0,0,3.2
4.25,0,0,3.2
4.255,0,0,3.2
4.26,0,0,3.2
4.265,0,0,3.2
4.2700000000000005,0,0,3.2
4.275,0,0,3.2
4.28,0,0,3.2
4.285,0,0,3.2
4.29,0,0,3.2
4.295,0,0,3.2
4.3,0,0,3.2
4.305,0,0,3.2
4.3100000000000005,0,0,3.2
4.315,0,0,3.2
4.32,0,0,3.2
4.325,0,0,3.2
4.33,0,0,3.2
4.335,0,0,3.2
4.34,0,0,3.2
4.345,0,0,3.2
4.3500000000000005,0,0,3.2
4.355,0,0,3.2
4.36,0,0,3.2
4.365,0,0,3.2
4.37,0,0,3.2
4.375,0,0,3.2
4.38,0,0,3.2
4.385,0,0,3.2
4.39,0,0,3.2
4.3950000000000005,0,0,3.2
4.4,0,0,3.2
4.405,0,0,3.2
4.41,0,0,3.2
4.415,0,0,3.2
4.42,0,0,3.2
4.425,0,0,3.2
4.43,0,0,3.2
4.4350000000000005,0,0,3.2
4.44,0,0,3.2
4.445,0,0,3.2
4.45,0,0,3.2
4.455,0,0,3.2
4.46,0,0,3.2
4.465,0,0,3.2
4.47,0,0,3.2
4.4750000000000005,0,0,3.2
4.48,0,0,3.2
4.485,0,0,3.2
4.49,0,0,3.2
4.495,0,0,3.2
4.5,0,0,3.2
4.505,0,0,3.2
4.51,0,0,3.2
4.515,0,0,3.2
4.5200000000000005,0,0,3.2
4.525,0,0,3.2
4.53,0,0,3.2
4.535,0,0,3.2
4.54,0,0,3.2
4.545,0,0,3.2
4.55,0,0,3.2
4.555,0,0,3.2
4.5600000000000005,0,0,3.2
4.565,0,0,3.2
4.57,0,0,3.2
4.575,0,0,3.2
4.58,0,0,3.2
4.585,0,0,3.2
4.59,0,0,3.2
4.595,0,0,3.2
4.6000000000000005,0,0,3.2
4.605,0,0,3.2
4.61,0,0,3.2
4.615,0,0,3.2
4.62,0,0,3.2
4.625,0,0,3.2
4.63,0,0,3.2
4.635,0,0,3.2
4.64,0,0,3.2
4.6450000000000005,0,0,3.2
4.65,0,0,3.2
4.655,0,0,3.2
4.66,0,0,3.2
4.665,0,0,3.2
4.67,0,0,3.2
4.675,0,0,3.2
4.68,0,0,3.2
4.6850000000000005,0,0,3.2
4.69,0,0,3.2
4.695,0,0,3.2
4.7,0,0,3.2
4.705,0,0,3.2
4.71,0,0,3.2
4.715,0,0,3.2
4.72,0,0,3.2
4.7250000000000005,0,0,3.2
4.73,0,0,3.2
4.735,0,0,3.2
4.74,0,0,3.2
4.745,0,0,3.2
4.75,0,0,3.2
4.755,0,0,3.2
4.76,0,0,3.2
4.765,0,0,3.2
4.7700000000000005,0,0,3.2
4.775,0,0,3.2
4.78,0,0,3.2
4.785,0,0,3.2
4.79,0,0,3.2
4.795,0,0,3.2
4.8,0,0,3.2
4.805,0,0,3.2
4.8100000000000005,0,0,3.2
4.815,0,0,3.2
4.82,0,0,3.2
4.825,0,0,3.2
4.83,0,0,3.2
4.835,0,0,3.2
4.84,0,0,3.2
4.845,0,0,3.2
4.8500000000000005,0,0,3.2
4.855,0,0,3.2
4.86,0,0,3.2
4.865,0,0,3.2
4.87,0,0,3.2
4.875,0,0,3.2
4.88,0,0,3.2
4.885,0,0,3.2
4.89,0,0,3.2
4.8950000000000005,0,0,3.2
4.9,0,0,3.2
4.905,0,0,3.2
4.91,0,0,3.2
4.915,0,0,3.2
4.92,0,0,3.2
4.925,0,0,3.2
4.93,0,0,3.2
4.9350000000000005,0,0,3.2
4.94,0,0,3.2
4.945,0,0,3.2
4.95,0,0,3.2
4.955,0,0,3.2
4.96,0,0,3.2
4.965,0,0,3.2
4.97,0,0,3.2
4.9750000000000005,0,0,3.2
4.98,0,0,3.2
4.985,0,0,3.2
4.99,0,0,3.2
4.995,0,0,3.2
